VERSION
8

COMMSETTINGS
0
COM1
COM2
9600
2
63
4
0
0

COMMDISPLAY
0

VERSATAP
0

SEND
0
hvac_queryHACommState
01 04 00 00 00 01 31 CA
0
5

SEND
1
hvac_queryLinkState
01 04 00 01 00 04 A0 09
0
5

SEND
2
hvac_queryCommState
01 04 00 05 00 04 E1 C8
0
5

SEND
3
hvac_setAddrRange
01 06 00 00 81 07 A8 58
0
5

SEND
4
hvac_getStatus1-00
01 04 07 D0 00 06 70 85
0
5

